
T6114 001:741 SEGGER J-Link V6.46h Log File (0001ms, 1694ms total)
T6114 001:741 DLL Compiled: Jun 28 2019 17:11:34 (0001ms, 1694ms total)
T6114 001:741 Logging started @ 2020-11-04 17:13 (0001ms, 1694ms total)
T6114 001:742 JLINK_SetWarnOutHandler(...) (0000ms, 1694ms total)
T6114 001:742 JLINK_OpenEx(...)
Firmware: J-Link V9 compiled Dec  2 2016 15:35:20
Hardware: V9.40
S/N: 269400321
Feature(s): GDB, RDI, FlashBP, FlashDL, JFlash, RDDI
TELNET listener socket opened on port 19021WEBSRV 
Starting webserver (0593ms, 2287ms total)
T6114 001:742 WEBSRV Webserver running on local port 19080 (0593ms, 2287ms total)
T6114 001:742   returns O.K. (0593ms, 2287ms total)
T6114 002:335 JLINK_SetErrorOutHandler(...) (0000ms, 2287ms total)
T6114 002:335 JLINK_ExecCommand("ProjectFile = "G:\TemperatureDataCollect\MyTest2018.08-3_Z（水体液位协议）\Project\MDK-ARM(uV4)\JLinkSettings.ini"", ...). Ref file found at: C:\Keil\ARM\Segger\JLinkDevices.ref (0003ms, 2290ms total)
T6114 002:335 XML referenced by ref file: C:\Program Files (x86)\SEGGER\JLink_V646h\JLinkDevices.xml (0003ms, 2290ms total)
T6114 002:335 C:\Program Files (x86)\SEGGER\JLink_V646h\JLinkDevices.xml evaluated successfully.  returns 0x00 (0100ms, 2387ms total)
T6114 002:467 JLINK_ExecCommand("Device = STM32F103ZE", ...). Device "STM32F103ZE" selected.  returns 0x00 (0004ms, 2391ms total)
T6114 002:471 JLINK_ExecCommand("DisableConnectionTimeout", ...).   returns 0x01 (0000ms, 2391ms total)
T6114 002:471 JLINK_GetHardwareVersion()  returns 0x16F30 (0000ms, 2391ms total)
T6114 002:471 JLINK_GetDLLVersion()  returns 64608 (0000ms, 2391ms total)
T6114 002:471 JLINK_GetFirmwareString(...) (0000ms, 2391ms total)
T6114 002:484 JLINK_GetDLLVersion()  returns 64608 (0000ms, 2391ms total)
T6114 002:484 JLINK_GetCompileDateTime() (0000ms, 2391ms total)
T6114 002:495 JLINK_GetFirmwareString(...) (0000ms, 2391ms total)
T6114 002:500 JLINK_GetHardwareVersion()  returns 0x16F30 (0000ms, 2391ms total)
T6114 002:550 JLINK_TIF_Select(JLINKARM_TIF_JTAG)  returns 0x00 (0003ms, 2394ms total)
T6114 002:553 JLINK_SetSpeed(2000) (0000ms, 2394ms total)
T6114 002:553 JLINK_GetIdData(...) >0x2F8 JTAG>TotalIRLen = 9, IRPrint = 0x0011 >0x30 JTAG> >0x50 JTAG>JTAG chain detection found 2 devices: #0 Id: 0x3BA00477, IRLen: 04, CoreSight JTAG-DP #1 Id: 0x06414041, IRLen: 05, STM32 Boundary Scan >0x40 JTAG> >0x40 JTAG> >0x40 JTAG> >0x30 JTAG> >0x40 JTAG> >0x40 JTAG> >0x40 JTAG> >0x40 JTAG> >0x40 JTAG> >0x40 JTAG> >0x40 JTAG> >0x40 JTAG> >0x40 JTAG> >0x40 JTAG> >0x40 JTAG> >0x40 JTAG> >0x40 JTAG> >0x40 JTAG> >0x40 JTAG> >0x40 JTAG> >0x40 JTAG> >0x40 JTAG>
 >0x40 JTAG> >0x40 JTAG> >0x40 JTAG> >0x40 JTAG> >0x40 JTAG> >0x2F8 JTAG>TotalIRLen = 9, IRPrint = 0x0011 >0x30 JTAG> >0x50 JTAG>JTAG chain detection found 2 devices: #0 Id: 0x3BA00477, IRLen: 04, CoreSight JTAG-DP #1 Id: 0x06414041, IRLen: 05, STM32 Boundary ScanScanning AP map to find all available APs >0x80 JTAG> >0x50 JTAG> >0x40 JTAG> >0x40 JTAG> >0x50 JTAG> >0x40 JTAG>AP[1]: Stopped AP scan as end of AP map has been reachedAP[0]: AHB-AP (IDR: 0x14770011)
Iterating through AP map to find AHB-AP to use >0x80 JTAG> >0x50 JTAG> >0x50 JTAG> >0x70 JTAG> >0x40 JTAG> >0x30 JTAG> >0x40 JTAG> >0x40 JTAG>AP[0]: Core foundAP[0]: AHB-AP ROM base: 0xE00FF000 >0x40 JTAG> >0x40 JTAG> >0x30 JTAG> >0x40 JTAG> >0x40 JTAG>CPUID register: 0x411FC231. Implementer code: 0x41 (ARM)Found Cortex-M3 r1p1, Little endian. -- Max. mem block: 0x00011108 -- CPU_ReadMem(4 bytes @ 0xE000EDF0) -- CPU_WriteMem(4 bytes @ 0xE000EDF0) -- CPU_ReadMem(4 bytes @ 0xE0002000)
FPUnit: 6 code (BP) slots and 2 literal slots -- CPU_ReadMem(4 bytes @ 0xE000EDFC) -- CPU_WriteMem(4 bytes @ 0xE000EDFC) -- CPU_ReadMem(4 bytes @ 0xE0001000) -- CPU_WriteMem(4 bytes @ 0xE0001000) -- CPU_ReadMem(4 bytes @ 0xE000ED88) -- CPU_WriteMem(4 bytes @ 0xE000ED88) -- CPU_ReadMem(4 bytes @ 0xE000ED88) -- CPU_WriteMem(4 bytes @ 0xE000ED88)CoreSight components:ROMTbl[0] @ E00FF000 -- CPU_ReadMem(16 bytes @ 0xE00FF000) -- CPU_ReadMem(16 bytes @ 0xE000EFF0) -- CPU_ReadMem(16 bytes @ 0xE000EFE0)
ROMTbl[0][0]: E000E000, CID: B105E00D, PID: 001BB000 SCS -- CPU_ReadMem(16 bytes @ 0xE0001FF0) -- CPU_ReadMem(16 bytes @ 0xE0001FE0)ROMTbl[0][1]: E0001000, CID: B105E00D, PID: 001BB002 DWT -- CPU_ReadMem(16 bytes @ 0xE0002FF0) -- CPU_ReadMem(16 bytes @ 0xE0002FE0)ROMTbl[0][2]: E0002000, CID: B105E00D, PID: 000BB003 FPB -- CPU_ReadMem(16 bytes @ 0xE0000FF0) -- CPU_ReadMem(16 bytes @ 0xE0000FE0)ROMTbl[0][3]: E0000000, CID: B105E00D, PID: 001BB001 ITM -- CPU_ReadMem(16 bytes @ 0xE00FF010)
 -- CPU_ReadMem(16 bytes @ 0xE0040FF0) -- CPU_ReadMem(16 bytes @ 0xE0040FE0)ROMTbl[0][4]: E0040000, CID: B105900D, PID: 001BB923 TPIU-Lite -- CPU_ReadMem(16 bytes @ 0xE0041FF0) -- CPU_ReadMem(16 bytes @ 0xE0041FE0)ROMTbl[0][5]: E0041000, CID: B105900D, PID: 101BB924 ETM-M3 ScanLen=9 NumDevices=2 aId[0]=0x3BA00477 aIrRead[0]=0 aScanLen[0]=0 aScanRead[0]=0 (0215ms, 2609ms total)
T6114 002:768 JLINK_JTAG_GetDeviceID(DeviceIndex = 0)  returns 0x3BA00477 (0000ms, 2609ms total)
T6114 002:768 JLINK_JTAG_GetDeviceInfo(DeviceIndex = 0)  returns 0x00 (0000ms, 2609ms total)
T6114 002:768 JLINK_JTAG_GetDeviceID(DeviceIndex = 1)  returns 0x6414041 (0000ms, 2609ms total)
T6114 002:768 JLINK_JTAG_GetDeviceInfo(DeviceIndex = 1)  returns 0x00 (0000ms, 2609ms total)
T6114 002:768 JLINK_GetDeviceFamily()  returns 3 (0000ms, 2609ms total)
T6114 002:774 JLINK_ReadMem (0xE00FFFF0, 0x0010 Bytes, ...) -- CPU_ReadMem(16 bytes @ 0xE00FFFF0) - Data: 0D 00 00 00 10 00 00 00 05 00 00 00 B1 00 00 00  returns 0x00 (0001ms, 2610ms total)
T6114 002:775 JLINK_ReadMem (0xE00FFFD0, 0x0020 Bytes, ...) -- CPU_ReadMem(32 bytes @ 0xE00FFFD0) - Data: 00 00 00 00 00 00 00 00 00 00 00 00 00 00 00 00 ...  returns 0x00 (0001ms, 2611ms total)
T6114 002:776 JLINK_ReadMem (0xE00FF000, 0x0018 Bytes, ...) -- CPU_ReadMem(24 bytes @ 0xE00FF000) - Data: 03 F0 F0 FF 03 20 F0 FF 03 30 F0 FF 03 10 F0 FF ...  returns 0x00 (0001ms, 2612ms total)
T6114 002:777 JLINK_ReadMemU32(0xE000ED00, 0x0001 Items, ...) -- CPU_ReadMem(4 bytes @ 0xE000ED00) - Data: 31 C2 1F 41  returns 1 (0001ms, 2613ms total)
T6114 002:778 JLINK_SetResetType(JLINKARM_CM3_RESET_TYPE_NORMAL)  returns JLINKARM_CM3_RESET_TYPE_NORMAL (0000ms, 2613ms total)
T6114 002:778 JLINK_Reset() -- CPU is running -- CPU_WriteMem(4 bytes @ 0xE000EDF0) -- CPU is running -- CPU_WriteMem(4 bytes @ 0xE000EDFC)Reset: Halt core after reset via DEMCR.VC_CORERESET.Reset: Reset device via AIRCR.SYSRESETREQ. -- CPU is running -- CPU_WriteMem(4 bytes @ 0xE000ED0C) -- CPU_ReadMem(4 bytes @ 0xE000EDF0) -- CPU_ReadMem(4 bytes @ 0xE000EDF0) -- CPU is running -- CPU_WriteMem(4 bytes @ 0xE000EDF0) -- CPU is running -- CPU_WriteMem(4 bytes @ 0xE000EDFC)
 -- CPU_ReadMem(4 bytes @ 0xE000EDF0) -- CPU_WriteMem(4 bytes @ 0xE000EDFC) -- CPU_WriteMem(4 bytes @ 0xE0001028) -- CPU_WriteMem(4 bytes @ 0xE0001038) -- CPU_WriteMem(4 bytes @ 0xE0001048) -- CPU_WriteMem(4 bytes @ 0xE0001058) -- CPU_WriteMem(4 bytes @ 0xE0002000) -- CPU_ReadMem(4 bytes @ 0xE000EDFC) -- CPU_ReadMem(4 bytes @ 0xE0001000) (0086ms, 2699ms total)
T6114 002:864 JLINK_Halt()  returns 0x00 (0000ms, 2699ms total)
T6114 002:864 JLINK_IsHalted()  returns TRUE (0000ms, 2699ms total)
T6114 002:864 JLINK_ReadMemU32(0xE000EDF0, 0x0001 Items, ...) -- CPU_ReadMem(4 bytes @ 0xE000EDF0) - Data: 03 00 03 00  returns 1 (0001ms, 2700ms total)
T6114 002:865 JLINK_WriteU32(0xE000EDF0, 0xA05F0003) -- CPU_WriteMem(4 bytes @ 0xE000EDF0)  returns 0 (0000ms, 2700ms total)
T6114 002:865 JLINK_WriteU32(0xE000EDFC, 0x01000000) -- CPU_WriteMem(4 bytes @ 0xE000EDFC)  returns 0 (0001ms, 2701ms total)
T6114 002:889 JLINK_GetHWStatus(...)  returns 0x00 (0000ms, 2701ms total)
T6114 002:910 JLINK_GetNumBPUnits(Type = 0xFFFFFF00)  returns 0x06 (0000ms, 2701ms total)
T6114 002:910 JLINK_GetNumBPUnits(Type = 0xF0)  returns 0x2000 (0000ms, 2701ms total)
T6114 002:910 JLINK_GetNumWPUnits()  returns 0x04 (0000ms, 2701ms total)
T6114 002:925 JLINK_GetSpeed()  returns 0x7D0 (0000ms, 2701ms total)
T6114 002:938 JLINK_ReadMemU32(0xE000E004, 0x0001 Items, ...) -- CPU_ReadMem(4 bytes @ 0xE000E004) - Data: 01 00 00 00  returns 1 (0001ms, 2702ms total)
T6114 002:939 JLINK_ReadMemU32(0xE000E004, 0x0001 Items, ...) -- CPU_ReadMem(4 bytes @ 0xE000E004) - Data: 01 00 00 00  returns 1 (0001ms, 2703ms total)
T6114 002:940 JLINK_WriteMem(0xE0001000, 0x001C Bytes, ...) - Data: 01 00 00 00 00 00 00 00 00 00 00 00 00 00 00 00 ... -- CPU_WriteMem(28 bytes @ 0xE0001000)  returns 0x1C (0001ms, 2704ms total)
T6114 002:941 JLINK_ReadMem (0xE0001000, 0x001C Bytes, ...) -- CPU_ReadMem(28 bytes @ 0xE0001000) - Data: 01 00 00 40 00 00 00 00 00 00 00 00 00 00 00 00 ...  returns 0x00 (0001ms, 2705ms total)
T6114 002:942 JLINK_Halt()  returns 0x00 (0000ms, 2705ms total)
T6114 002:942 JLINK_IsHalted()  returns TRUE (0000ms, 2705ms total)
T6114 002:977 JLINK_WriteMem(0x20000000, 0x0164 Bytes, ...) - Data: 00 BE 0A E0 0D 78 2D 06 68 40 08 24 40 00 00 D3 ... -- CPU_WriteMem(356 bytes @ 0x20000000)  returns 0x164 (0004ms, 2709ms total)
T6114 002:981 JLINK_WriteReg(R0, 0x08000000)  returns 0x00 (0000ms, 2709ms total)
T6114 002:981 JLINK_WriteReg(R1, 0x007A1200)  returns 0x00 (0000ms, 2709ms total)
T6114 002:981 JLINK_WriteReg(R2, 0x00000001)  returns 0x00 (0000ms, 2709ms total)
T6114 002:981 JLINK_WriteReg(R3, 0x00000000)  returns 0x00 (0000ms, 2709ms total)
T6114 002:981 JLINK_WriteReg(R4, 0x00000000)  returns 0x00 (0000ms, 2709ms total)
T6114 002:981 JLINK_WriteReg(R5, 0x00000000)  returns 0x00 (0000ms, 2709ms total)
T6114 002:981 JLINK_WriteReg(R6, 0x00000000)  returns 0x00 (0000ms, 2709ms total)
T6114 002:981 JLINK_WriteReg(R7, 0x00000000)  returns 0x00 (0001ms, 2710ms total)
T6114 002:982 JLINK_WriteReg(R8, 0x00000000)  returns 0x00 (0000ms, 2710ms total)
T6114 002:982 JLINK_WriteReg(R9, 0x20000160)  returns 0x00 (0000ms, 2710ms total)
T6114 002:982 JLINK_WriteReg(R10, 0x00000000)  returns 0x00 (0000ms, 2710ms total)
T6114 002:982 JLINK_WriteReg(R11, 0x00000000)  returns 0x00 (0000ms, 2710ms total)
T6114 002:982 JLINK_WriteReg(R12, 0x00000000)  returns 0x00 (0000ms, 2710ms total)
T6114 002:982 JLINK_WriteReg(R13 (SP), 0x20000800)  returns 0x00 (0000ms, 2710ms total)
T6114 002:982 JLINK_WriteReg(R14, 0x20000001)  returns 0x00 (0000ms, 2710ms total)
T6114 002:982 JLINK_WriteReg(R15 (PC), 0x20000038)  returns 0x00 (0000ms, 2710ms total)
T6114 002:982 JLINK_WriteReg(XPSR, 0x01000000)  returns 0x00 (0000ms, 2710ms total)
T6114 002:982 JLINK_WriteReg(MSP, 0x20000800)  returns 0x00 (0000ms, 2710ms total)
T6114 002:982 JLINK_WriteReg(PSP, 0x20000800)  returns 0x00 (0000ms, 2710ms total)
T6114 002:982 JLINK_WriteReg(CFBP, 0x00000000)  returns 0x00 (0000ms, 2710ms total)
T6114 002:982 JLINK_SetBPEx(Addr = 0x20000000, Type = 0xFFFFFFF2) -- CPU_ReadMem(2 bytes @ 0x20000000)  returns 0x00000001 (0001ms, 2711ms total)
T6114 002:983 JLINK_Go() -- CPU_WriteMem(2 bytes @ 0x20000000) -- CPU_ReadMem(4 bytes @ 0xE0001000) -- CPU_WriteMem(4 bytes @ 0xE0002008) -- CPU_WriteMem(4 bytes @ 0xE000200C) -- CPU_WriteMem(4 bytes @ 0xE0002010) -- CPU_WriteMem(4 bytes @ 0xE0002014) -- CPU_WriteMem(4 bytes @ 0xE0002018) -- CPU_WriteMem(4 bytes @ 0xE000201C) -- CPU_WriteMem(4 bytes @ 0xE0001004) (0007ms, 2718ms total)
T6114 002:990 JLINK_IsHalted() -- CPU_ReadMem(2 bytes @ 0x20000000)  returns TRUE (0005ms, 2723ms total)
T6114 002:995 JLINK_ReadReg(R15 (PC))  returns 0x20000000 (0000ms, 2718ms total)
T6114 002:995 JLINK_ClrBPEx(BPHandle = 0x00000001)  returns 0x00 (0000ms, 2718ms total)
T6114 002:995 JLINK_ReadReg(R0)  returns 0x00000000 (0000ms, 2718ms total)
T6114 002:996 JLINK_WriteReg(R0, 0x08000000)  returns 0x00 (0000ms, 2718ms total)
T6114 002:996 JLINK_WriteReg(R1, 0x007A1200)  returns 0x00 (0000ms, 2718ms total)
T6114 002:996 JLINK_WriteReg(R2, 0x00000001)  returns 0x00 (0000ms, 2718ms total)
T6114 002:996 JLINK_WriteReg(R3, 0x00000000)  returns 0x00 (0000ms, 2718ms total)
T6114 002:996 JLINK_WriteReg(R4, 0x00000000)  returns 0x00 (0000ms, 2718ms total)
T6114 002:996 JLINK_WriteReg(R5, 0x00000000)  returns 0x00 (0000ms, 2718ms total)
T6114 002:996 JLINK_WriteReg(R6, 0x00000000)  returns 0x00 (0000ms, 2718ms total)
T6114 002:996 JLINK_WriteReg(R7, 0x00000000)  returns 0x00 (0000ms, 2718ms total)
T6114 002:996 JLINK_WriteReg(R8, 0x00000000)  returns 0x00 (0000ms, 2718ms total)
T6114 002:996 JLINK_WriteReg(R9, 0x20000160)  returns 0x00 (0000ms, 2718ms total)
T6114 002:996 JLINK_WriteReg(R10, 0x00000000)  returns 0x00 (0000ms, 2718ms total)
T6114 002:996 JLINK_WriteReg(R11, 0x00000000)  returns 0x00 (0000ms, 2718ms total)
T6114 002:996 JLINK_WriteReg(R12, 0x00000000)  returns 0x00 (0000ms, 2718ms total)
T6114 002:996 JLINK_WriteReg(R13 (SP), 0x20000800)  returns 0x00 (0000ms, 2718ms total)
T6114 002:996 JLINK_WriteReg(R14, 0x20000001)  returns 0x00 (0000ms, 2718ms total)
T6114 002:996 JLINK_WriteReg(R15 (PC), 0x2000007C)  returns 0x00 (0000ms, 2718ms total)
T6114 002:996 JLINK_WriteReg(XPSR, 0x01000000)  returns 0x00 (0000ms, 2718ms total)
T6114 002:996 JLINK_WriteReg(MSP, 0x20000800)  returns 0x00 (0000ms, 2718ms total)
T6114 002:996 JLINK_WriteReg(PSP, 0x20000800)  returns 0x00 (0000ms, 2718ms total)
T6114 002:996 JLINK_WriteReg(CFBP, 0x00000000)  returns 0x00 (0001ms, 2719ms total)
T6114 002:997 JLINK_SetBPEx(Addr = 0x20000000, Type = 0xFFFFFFF2)  returns 0x00000002 (0000ms, 2719ms total)
T6114 002:997 JLINK_Go() -- CPU_ReadMem(4 bytes @ 0xE0001000) (0004ms, 2723ms total)
T6114 003:001 JLINK_IsHalted()  returns FALSE (0001ms, 2724ms total)
T6114 003:107 JLINK_IsHalted() -- CPU_ReadMem(2 bytes @ 0x20000000)  returns TRUE (0004ms, 2727ms total)
T6114 003:111 JLINK_ReadReg(R15 (PC))  returns 0x20000000 (0000ms, 2723ms total)
T6114 003:111 JLINK_ClrBPEx(BPHandle = 0x00000002)  returns 0x00 (0000ms, 2723ms total)
T6114 003:111 JLINK_ReadReg(R0)  returns 0x00000000 (0000ms, 2723ms total)
T6114 003:164 JLINK_WriteReg(R0, 0x00000001)  returns 0x00 (0000ms, 2723ms total)
T6114 003:164 JLINK_WriteReg(R1, 0x007A1200)  returns 0x00 (0000ms, 2723ms total)
T6114 003:164 JLINK_WriteReg(R2, 0x00000001)  returns 0x00 (0000ms, 2723ms total)
T6114 003:164 JLINK_WriteReg(R3, 0x00000000)  returns 0x00 (0001ms, 2724ms total)
T6114 003:165 JLINK_WriteReg(R4, 0x00000000)  returns 0x00 (0000ms, 2724ms total)
T6114 003:165 JLINK_WriteReg(R5, 0x00000000)  returns 0x00 (0000ms, 2724ms total)
T6114 003:165 JLINK_WriteReg(R6, 0x00000000)  returns 0x00 (0000ms, 2724ms total)
T6114 003:165 JLINK_WriteReg(R7, 0x00000000)  returns 0x00 (0000ms, 2724ms total)
T6114 003:165 JLINK_WriteReg(R8, 0x00000000)  returns 0x00 (0000ms, 2724ms total)
T6114 003:165 JLINK_WriteReg(R9, 0x20000160)  returns 0x00 (0000ms, 2724ms total)
T6114 003:165 JLINK_WriteReg(R10, 0x00000000)  returns 0x00 (0000ms, 2724ms total)
T6114 003:165 JLINK_WriteReg(R11, 0x00000000)  returns 0x00 (0000ms, 2724ms total)
T6114 003:165 JLINK_WriteReg(R12, 0x00000000)  returns 0x00 (0000ms, 2724ms total)
T6114 003:165 JLINK_WriteReg(R13 (SP), 0x20000800)  returns 0x00 (0000ms, 2724ms total)
T6114 003:165 JLINK_WriteReg(R14, 0x20000001)  returns 0x00 (0000ms, 2724ms total)
T6114 003:165 JLINK_WriteReg(R15 (PC), 0x2000006A)  returns 0x00 (0000ms, 2724ms total)
T6114 003:165 JLINK_WriteReg(XPSR, 0x01000000)  returns 0x00 (0000ms, 2724ms total)
T6114 003:165 JLINK_WriteReg(MSP, 0x20000800)  returns 0x00 (0000ms, 2724ms total)
T6114 003:165 JLINK_WriteReg(PSP, 0x20000800)  returns 0x00 (0000ms, 2724ms total)
T6114 003:165 JLINK_WriteReg(CFBP, 0x00000000)  returns 0x00 (0000ms, 2724ms total)
T6114 003:165 JLINK_SetBPEx(Addr = 0x20000000, Type = 0xFFFFFFF2)  returns 0x00000003 (0000ms, 2724ms total)
T6114 003:165 JLINK_Go() -- CPU_ReadMem(4 bytes @ 0xE0001000) (0005ms, 2729ms total)
T6114 003:170 JLINK_IsHalted() -- CPU_ReadMem(2 bytes @ 0x20000000)  returns TRUE (0004ms, 2733ms total)
T6114 003:174 JLINK_ReadReg(R15 (PC))  returns 0x20000000 (0000ms, 2729ms total)
T6114 003:174 JLINK_ClrBPEx(BPHandle = 0x00000003)  returns 0x00 (0000ms, 2729ms total)
T6114 003:174 JLINK_ReadReg(R0)  returns 0x00000000 (0000ms, 2729ms total)
T6114 003:186 JLINK_WriteMem(0x20000000, 0x0164 Bytes, ...) - Data: 00 BE 0A E0 0D 78 2D 06 68 40 08 24 40 00 00 D3 ... -- CPU_WriteMem(356 bytes @ 0x20000000)  returns 0x164 (0003ms, 2732ms total)
T6114 003:189 JLINK_WriteReg(R0, 0x08000000)  returns 0x00 (0000ms, 2732ms total)
T6114 003:189 JLINK_WriteReg(R1, 0x007A1200)  returns 0x00 (0000ms, 2732ms total)
T6114 003:189 JLINK_WriteReg(R2, 0x00000002)  returns 0x00 (0000ms, 2732ms total)
T6114 003:189 JLINK_WriteReg(R3, 0x00000000)  returns 0x00 (0000ms, 2732ms total)
T6114 003:189 JLINK_WriteReg(R4, 0x00000000)  returns 0x00 (0000ms, 2732ms total)
T6114 003:189 JLINK_WriteReg(R5, 0x00000000)  returns 0x00 (0000ms, 2732ms total)
T6114 003:189 JLINK_WriteReg(R6, 0x00000000)  returns 0x00 (0000ms, 2732ms total)
T6114 003:189 JLINK_WriteReg(R7, 0x00000000)  returns 0x00 (0000ms, 2732ms total)
T6114 003:189 JLINK_WriteReg(R8, 0x00000000)  returns 0x00 (0000ms, 2732ms total)
T6114 003:190 JLINK_WriteReg(R9, 0x20000160)  returns 0x00 (0000ms, 2733ms total)
T6114 003:190 JLINK_WriteReg(R10, 0x00000000)  returns 0x00 (0000ms, 2733ms total)
T6114 003:190 JLINK_WriteReg(R11, 0x00000000)  returns 0x00 (0000ms, 2733ms total)
T6114 003:190 JLINK_WriteReg(R12, 0x00000000)  returns 0x00 (0000ms, 2733ms total)
T6114 003:190 JLINK_WriteReg(R13 (SP), 0x20000800)  returns 0x00 (0000ms, 2733ms total)
T6114 003:190 JLINK_WriteReg(R14, 0x20000001)  returns 0x00 (0000ms, 2733ms total)
T6114 003:190 JLINK_WriteReg(R15 (PC), 0x20000038)  returns 0x00 (0000ms, 2733ms total)
T6114 003:190 JLINK_WriteReg(XPSR, 0x01000000)  returns 0x00 (0000ms, 2733ms total)
T6114 003:190 JLINK_WriteReg(MSP, 0x20000800)  returns 0x00 (0000ms, 2733ms total)
T6114 003:190 JLINK_WriteReg(PSP, 0x20000800)  returns 0x00 (0000ms, 2733ms total)
T6114 003:190 JLINK_WriteReg(CFBP, 0x00000000)  returns 0x00 (0000ms, 2733ms total)
T6114 003:190 JLINK_SetBPEx(Addr = 0x20000000, Type = 0xFFFFFFF2) -- CPU_ReadMem(2 bytes @ 0x20000000)  returns 0x00000004 (0001ms, 2734ms total)
T6114 003:191 JLINK_Go() -- CPU_WriteMem(2 bytes @ 0x20000000) -- CPU_ReadMem(4 bytes @ 0xE0001000) (0005ms, 2739ms total)
T6114 003:196 JLINK_IsHalted() -- CPU_ReadMem(2 bytes @ 0x20000000)  returns TRUE (0004ms, 2743ms total)
T6114 003:200 JLINK_ReadReg(R15 (PC))  returns 0x20000000 (0000ms, 2739ms total)
T6114 003:200 JLINK_ClrBPEx(BPHandle = 0x00000004)  returns 0x00 (0000ms, 2739ms total)
T6114 003:200 JLINK_ReadReg(R0)  returns 0x00000000 (0000ms, 2739ms total)
T6114 003:201 JLINK_WriteMem(0x20000164, 0x0400 Bytes, ...) - Data: B0 9C 00 20 99 02 00 08 63 20 00 08 A3 02 00 08 ... -- CPU_WriteMem(1024 bytes @ 0x20000164)  returns 0x400 (0006ms, 2745ms total)
T6114 003:208 JLINK_WriteReg(R0, 0x08000000)  returns 0x00 (0000ms, 2746ms total)
T6114 003:208 JLINK_WriteReg(R1, 0x00000400)  returns 0x00 (0000ms, 2746ms total)
T6114 003:208 JLINK_WriteReg(R2, 0x20000164)  returns 0x00 (0000ms, 2746ms total)
T6114 003:208 JLINK_WriteReg(R3, 0x00000000)  returns 0x00 (0000ms, 2746ms total)
T6114 003:208 JLINK_WriteReg(R4, 0x00000000)  returns 0x00 (0000ms, 2746ms total)
T6114 003:208 JLINK_WriteReg(R5, 0x00000000)  returns 0x00 (0000ms, 2746ms total)
T6114 003:208 JLINK_WriteReg(R6, 0x00000000)  returns 0x00 (0000ms, 2746ms total)
T6114 003:208 JLINK_WriteReg(R7, 0x00000000)  returns 0x00 (0000ms, 2746ms total)
T6114 003:208 JLINK_WriteReg(R8, 0x00000000)  returns 0x00 (0000ms, 2746ms total)
T6114 003:208 JLINK_WriteReg(R9, 0x20000160)  returns 0x00 (0000ms, 2746ms total)
T6114 003:208 JLINK_WriteReg(R10, 0x00000000)  returns 0x00 (0000ms, 2746ms total)
T6114 003:208 JLINK_WriteReg(R11, 0x00000000)  returns 0x00 (0000ms, 2746ms total)
T6114 003:208 JLINK_WriteReg(R12, 0x00000000)  returns 0x00 (0000ms, 2746ms total)
T6114 003:208 JLINK_WriteReg(R13 (SP), 0x20000800)  returns 0x00 (0000ms, 2746ms total)
T6114 003:208 JLINK_WriteReg(R14, 0x20000001)  returns 0x00 (0000ms, 2746ms total)
T6114 003:208 JLINK_WriteReg(R15 (PC), 0x200000F4)  returns 0x00 (0000ms, 2746ms total)
T6114 003:208 JLINK_WriteReg(XPSR, 0x01000000)  returns 0x00 (0000ms, 2746ms total)
T6114 003:208 JLINK_WriteReg(MSP, 0x20000800)  returns 0x00 (0000ms, 2746ms total)
T6114 003:208 JLINK_WriteReg(PSP, 0x20000800)  returns 0x00 (0000ms, 2746ms total)
T6114 003:208 JLINK_WriteReg(CFBP, 0x00000000)  returns 0x00 (0000ms, 2746ms total)
T6114 003:208 JLINK_SetBPEx(Addr = 0x20000000, Type = 0xFFFFFFF2)  returns 0x00000005 (0000ms, 2746ms total)
T6114 003:208 JLINK_Go() -- CPU_ReadMem(4 bytes @ 0xE0001000) (0005ms, 2751ms total)
T6114 003:213 JLINK_IsHalted()  returns FALSE (0001ms, 2752ms total)
T6114 003:245 JLINK_IsHalted() -- CPU_ReadMem(2 bytes @ 0x20000000)  returns TRUE (0004ms, 2755ms total)
T6114 003:249 JLINK_ReadReg(R15 (PC))  returns 0x20000000 (0000ms, 2751ms total)
T6114 003:249 JLINK_ClrBPEx(BPHandle = 0x00000005)  returns 0x00 (0001ms, 2752ms total)
T6114 003:250 JLINK_ReadReg(R0)  returns 0x00000000 (0000ms, 2752ms total)
T6114 003:250 JLINK_WriteMem(0x20000164, 0x0400 Bytes, ...) - Data: 4F EA 10 61 01 EB 12 61 C0 F3 56 00 C2 F3 56 02 ... -- CPU_WriteMem(1024 bytes @ 0x20000164)  returns 0x400 (0007ms, 2759ms total)
T6114 003:257 JLINK_WriteReg(R0, 0x08000400)  returns 0x00 (0000ms, 2759ms total)
T6114 003:257 JLINK_WriteReg(R1, 0x00000400)  returns 0x00 (0000ms, 2759ms total)
T6114 003:257 JLINK_WriteReg(R2, 0x20000164)  returns 0x00 (0000ms, 2759ms total)
T6114 003:257 JLINK_WriteReg(R3, 0x00000000)  returns 0x00 (0000ms, 2759ms total)
T6114 003:257 JLINK_WriteReg(R4, 0x00000000)  returns 0x00 (0000ms, 2759ms total)
T6114 003:257 JLINK_WriteReg(R5, 0x00000000)  returns 0x00 (0000ms, 2759ms total)
T6114 003:258 JLINK_WriteReg(R6, 0x00000000)  returns 0x00 (0000ms, 2760ms total)
T6114 003:258 JLINK_WriteReg(R7, 0x00000000)  returns 0x00 (0000ms, 2760ms total)
T6114 003:258 JLINK_WriteReg(R8, 0x00000000)  returns 0x00 (0000ms, 2760ms total)
T6114 003:258 JLINK_WriteReg(R9, 0x20000160)  returns 0x00 (0000ms, 2760ms total)
T6114 003:258 JLINK_WriteReg(R10, 0x00000000)  returns 0x00 (0000ms, 2760ms total)
T6114 003:258 JLINK_WriteReg(R11, 0x00000000)  returns 0x00 (0000ms, 2760ms total)
T6114 003:258 JLINK_WriteReg(R12, 0x00000000)  returns 0x00 (0000ms, 2760ms total)
T6114 003:258 JLINK_WriteReg(R13 (SP), 0x20000800)  returns 0x00 (0000ms, 2760ms total)
T6114 003:258 JLINK_WriteReg(R14, 0x20000001)  returns 0x00 (0000ms, 2760ms total)
T6114 003:258 JLINK_WriteReg(R15 (PC), 0x200000F4)  returns 0x00 (0000ms, 2760ms total)
T6114 003:258 JLINK_WriteReg(XPSR, 0x01000000)  returns 0x00 (0000ms, 2760ms total)
T6114 003:258 JLINK_WriteReg(MSP, 0x20000800)  returns 0x00 (0000ms, 2760ms total)
T6114 003:258 JLINK_WriteReg(PSP, 0x20000800)  returns 0x00 (0000ms, 2760ms total)
T6114 003:258 JLINK_WriteReg(CFBP, 0x00000000)  returns 0x00 (0000ms, 2760ms total)
T6114 003:258 JLINK_SetBPEx(Addr = 0x20000000, Type = 0xFFFFFFF2)  returns 0x00000006 (0000ms, 2760ms total)
T6114 003:258 JLINK_Go() -- CPU_ReadMem(4 bytes @ 0xE0001000) (0005ms, 2765ms total)
T6114 003:263 JLINK_IsHalted()  returns FALSE (0001ms, 2766ms total)
T6114 003:269 JLINK_IsHalted()  returns FALSE (0000ms, 2765ms total)
T6114 003:273 JLINK_IsHalted()  returns FALSE (0000ms, 2765ms total)
T6114 003:275 JLINK_IsHalted()  returns FALSE (0000ms, 2765ms total)
T6114 003:277 JLINK_IsHalted()  returns FALSE (0000ms, 2765ms total)
T6114 003:279 JLINK_IsHalted()  returns FALSE (0000ms, 2765ms total)
T6114 003:281 JLINK_IsHalted()  returns FALSE (0000ms, 2765ms total)
T6114 003:283 JLINK_IsHalted()  returns FALSE (0000ms, 2765ms total)
T6114 003:287 JLINK_IsHalted()  returns FALSE (0000ms, 2765ms total)
T6114 003:289 JLINK_IsHalted()  returns FALSE (0000ms, 2765ms total)
T6114 003:291 JLINK_IsHalted()  returns FALSE (0000ms, 2765ms total)
T6114 003:293 JLINK_IsHalted()  returns FALSE (0000ms, 2765ms total)
T6114 003:295 JLINK_IsHalted() -- CPU_ReadMem(2 bytes @ 0x20000000)  returns TRUE (0004ms, 2769ms total)
T6114 003:299 JLINK_ReadReg(R15 (PC))  returns 0x20000000 (0000ms, 2765ms total)
T6114 003:299 JLINK_ClrBPEx(BPHandle = 0x00000006)  returns 0x00 (0000ms, 2765ms total)
T6114 003:299 JLINK_ReadReg(R0)  returns 0x00000000 (0000ms, 2765ms total)
T6114 003:300 JLINK_WriteMem(0x20000164, 0x0400 Bytes, ...) - Data: E9 E7 83 F0 00 43 5B E7 81 F0 00 41 58 E7 2D E9 ... -- CPU_WriteMem(1024 bytes @ 0x20000164)  returns 0x400 (0007ms, 2772ms total)
T6114 003:307 JLINK_WriteReg(R0, 0x08000800)  returns 0x00 (0000ms, 2772ms total)
T6114 003:307 JLINK_WriteReg(R1, 0x00000400)  returns 0x00 (0000ms, 2772ms total)
T6114 003:307 JLINK_WriteReg(R2, 0x20000164)  returns 0x00 (0000ms, 2772ms total)
T6114 003:307 JLINK_WriteReg(R3, 0x00000000)  returns 0x00 (0000ms, 2772ms total)
T6114 003:307 JLINK_WriteReg(R4, 0x00000000)  returns 0x00 (0000ms, 2772ms total)
T6114 003:307 JLINK_WriteReg(R5, 0x00000000)  returns 0x00 (0000ms, 2772ms total)
T6114 003:307 JLINK_WriteReg(R6, 0x00000000)  returns 0x00 (0000ms, 2772ms total)
T6114 003:307 JLINK_WriteReg(R7, 0x00000000)  returns 0x00 (0000ms, 2772ms total)
T6114 003:307 JLINK_WriteReg(R8, 0x00000000)  returns 0x00 (0000ms, 2772ms total)
T6114 003:307 JLINK_WriteReg(R9, 0x20000160)  returns 0x00 (0000ms, 2772ms total)
T6114 003:307 JLINK_WriteReg(R10, 0x00000000)  returns 0x00 (0000ms, 2772ms total)
T6114 003:307 JLINK_WriteReg(R11, 0x00000000)  returns 0x00 (0000ms, 2772ms total)
T6114 003:307 JLINK_WriteReg(R12, 0x00000000)  returns 0x00 (0000ms, 2772ms total)
T6114 003:307 JLINK_WriteReg(R13 (SP), 0x20000800)  returns 0x00 (0000ms, 2772ms total)
T6114 003:307 JLINK_WriteReg(R14, 0x20000001)  returns 0x00 (0000ms, 2772ms total)
T6114 003:307 JLINK_WriteReg(R15 (PC), 0x200000F4)  returns 0x00 (0000ms, 2772ms total)
T6114 003:307 JLINK_WriteReg(XPSR, 0x01000000)  returns 0x00 (0000ms, 2772ms total)
T6114 003:307 JLINK_WriteReg(MSP, 0x20000800)  returns 0x00 (0001ms, 2773ms total)
T6114 003:308 JLINK_WriteReg(PSP, 0x20000800)  returns 0x00 (0000ms, 2773ms total)
T6114 003:308 JLINK_WriteReg(CFBP, 0x00000000)  returns 0x00 (0000ms, 2773ms total)
T6114 003:308 JLINK_SetBPEx(Addr = 0x20000000, Type = 0xFFFFFFF2)  returns 0x00000007 (0000ms, 2773ms total)
T6114 003:308 JLINK_Go() -- CPU_ReadMem(4 bytes @ 0xE0001000) (0004ms, 2777ms total)
T6114 003:313 JLINK_IsHalted()  returns FALSE (0001ms, 2779ms total)
T6114 003:328 JLINK_IsHalted()  returns FALSE (0001ms, 2779ms total)
T6114 003:331 JLINK_IsHalted()  returns FALSE (0000ms, 2778ms total)
T6114 003:336 JLINK_IsHalted()  returns FALSE (0000ms, 2778ms total)
T6114 003:338 JLINK_IsHalted()  returns FALSE (0000ms, 2778ms total)
T6114 003:340 JLINK_IsHalted()  returns FALSE (0000ms, 2778ms total)
T6114 003:342 JLINK_IsHalted()  returns FALSE (0000ms, 2778ms total)
T6114 003:344 JLINK_IsHalted() -- CPU_ReadMem(2 bytes @ 0x20000000)  returns TRUE (0004ms, 2782ms total)
T6114 003:348 JLINK_ReadReg(R15 (PC))  returns 0x20000000 (0000ms, 2778ms total)
T6114 003:348 JLINK_ClrBPEx(BPHandle = 0x00000007)  returns 0x00 (0000ms, 2778ms total)
T6114 003:348 JLINK_ReadReg(R0)  returns 0x00000000 (0000ms, 2778ms total)
T6114 003:349 JLINK_WriteMem(0x20000164, 0x0400 Bytes, ...) - Data: D0 64 00 2E 12 DD BA F1 2B 0F 08 D0 BA F1 2D 0F ... -- CPU_WriteMem(1024 bytes @ 0x20000164)  returns 0x400 (0007ms, 2785ms total)
T6114 003:356 JLINK_WriteReg(R0, 0x08000C00)  returns 0x00 (0000ms, 2785ms total)
T6114 003:356 JLINK_WriteReg(R1, 0x00000400)  returns 0x00 (0000ms, 2785ms total)
T6114 003:356 JLINK_WriteReg(R2, 0x20000164)  returns 0x00 (0000ms, 2785ms total)
T6114 003:356 JLINK_WriteReg(R3, 0x00000000)  returns 0x00 (0000ms, 2785ms total)
T6114 003:356 JLINK_WriteReg(R4, 0x00000000)  returns 0x00 (0000ms, 2785ms total)
T6114 003:356 JLINK_WriteReg(R5, 0x00000000)  returns 0x00 (0000ms, 2785ms total)
T6114 003:356 JLINK_WriteReg(R6, 0x00000000)  returns 0x00 (0000ms, 2785ms total)
T6114 003:356 JLINK_WriteReg(R7, 0x00000000)  returns 0x00 (0000ms, 2785ms total)
T6114 003:356 JLINK_WriteReg(R8, 0x00000000)  returns 0x00 (0000ms, 2785ms total)
T6114 003:356 JLINK_WriteReg(R9, 0x20000160)  returns 0x00 (0000ms, 2785ms total)
T6114 003:356 JLINK_WriteReg(R10, 0x00000000)  returns 0x00 (0000ms, 2785ms total)
T6114 003:356 JLINK_WriteReg(R11, 0x00000000)  returns 0x00 (0000ms, 2785ms total)
T6114 003:356 JLINK_WriteReg(R12, 0x00000000)  returns 0x00 (0000ms, 2785ms total)
T6114 003:356 JLINK_WriteReg(R13 (SP), 0x20000800)  returns 0x00 (0000ms, 2785ms total)
T6114 003:356 JLINK_WriteReg(R14, 0x20000001)  returns 0x00 (0000ms, 2785ms total)
T6114 003:356 JLINK_WriteReg(R15 (PC), 0x200000F4)  returns 0x00 (0000ms, 2785ms total)
T6114 003:356 JLINK_WriteReg(XPSR, 0x01000000)  returns 0x00 (0000ms, 2785ms total)
T6114 003:356 JLINK_WriteReg(MSP, 0x20000800)  returns 0x00 (0000ms, 2785ms total)
T6114 003:356 JLINK_WriteReg(PSP, 0x20000800)  returns 0x00 (0000ms, 2785ms total)
T6114 003:356 JLINK_WriteReg(CFBP, 0x00000000)  returns 0x00 (0000ms, 2785ms total)
T6114 003:356 JLINK_SetBPEx(Addr = 0x20000000, Type = 0xFFFFFFF2)  returns 0x00000008 (0000ms, 2785ms total)
T6114 003:356 JLINK_Go() -- CPU_ReadMem(4 bytes @ 0xE0001000) (0005ms, 2790ms total)
T6114 003:361 JLINK_IsHalted()  returns FALSE (0001ms, 2791ms total)
T6114 003:372 JLINK_IsHalted()  returns FALSE (0001ms, 2791ms total)
T6114 003:375 JLINK_IsHalted()  returns FALSE (0000ms, 2790ms total)
T6114 003:377 JLINK_IsHalted()  returns FALSE (0000ms, 2790ms total)
T6114 003:379 JLINK_IsHalted()  returns FALSE (0001ms, 2791ms total)
T6114 003:382 JLINK_IsHalted()  returns FALSE (0000ms, 2790ms total)
T6114 003:387 JLINK_IsHalted()  returns FALSE (0000ms, 2790ms total)
T6114 003:389 JLINK_IsHalted()  returns FALSE (0000ms, 2790ms total)
T6114 003:391 JLINK_IsHalted()  returns FALSE (0000ms, 2790ms total)
T6114 003:393 JLINK_IsHalted() -- CPU_ReadMem(2 bytes @ 0x20000000)  returns TRUE (0004ms, 2794ms total)
T6114 003:397 JLINK_ReadReg(R15 (PC))  returns 0x20000000 (0000ms, 2790ms total)
T6114 003:397 JLINK_ClrBPEx(BPHandle = 0x00000008)  returns 0x00 (0000ms, 2790ms total)
T6114 003:397 JLINK_ReadReg(R0)  returns 0x00000000 (0000ms, 2790ms total)
T6114 003:398 JLINK_WriteMem(0x20000164, 0x0400 Bytes, ...) - Data: F9 D1 2B 07 05 D4 00 23 52 1E 0F D4 01 F8 01 3B ... -- CPU_WriteMem(1024 bytes @ 0x20000164)  returns 0x400 (0007ms, 2797ms total)
T6114 003:405 JLINK_WriteReg(R0, 0x08001000)  returns 0x00 (0000ms, 2797ms total)
T6114 003:405 JLINK_WriteReg(R1, 0x00000400)  returns 0x00 (0000ms, 2797ms total)
T6114 003:405 JLINK_WriteReg(R2, 0x20000164)  returns 0x00 (0000ms, 2797ms total)
T6114 003:405 JLINK_WriteReg(R3, 0x00000000)  returns 0x00 (0000ms, 2797ms total)
T6114 003:405 JLINK_WriteReg(R4, 0x00000000)  returns 0x00 (0000ms, 2797ms total)
T6114 003:405 JLINK_WriteReg(R5, 0x00000000)  returns 0x00 (0000ms, 2797ms total)
T6114 003:405 JLINK_WriteReg(R6, 0x00000000)  returns 0x00 (0000ms, 2797ms total)
T6114 003:405 JLINK_WriteReg(R7, 0x00000000)  returns 0x00 (0000ms, 2797ms total)
T6114 003:405 JLINK_WriteReg(R8, 0x00000000)  returns 0x00 (0000ms, 2797ms total)
T6114 003:405 JLINK_WriteReg(R9, 0x20000160)  returns 0x00 (0000ms, 2797ms total)
T6114 003:405 JLINK_WriteReg(R10, 0x00000000)  returns 0x00 (0000ms, 2797ms total)
T6114 003:405 JLINK_WriteReg(R11, 0x00000000)  returns 0x00 (0000ms, 2797ms total)
T6114 003:405 JLINK_WriteReg(R12, 0x00000000)  returns 0x00 (0000ms, 2797ms total)
T6114 003:405 JLINK_WriteReg(R13 (SP), 0x20000800)  returns 0x00 (0000ms, 2797ms total)
T6114 003:405 JLINK_WriteReg(R14, 0x20000001)  returns 0x00 (0000ms, 2797ms total)
T6114 003:405 JLINK_WriteReg(R15 (PC), 0x200000F4)  returns 0x00 (0000ms, 2797ms total)
T6114 003:405 JLINK_WriteReg(XPSR, 0x01000000)  returns 0x00 (0000ms, 2797ms total)
T6114 003:405 JLINK_WriteReg(MSP, 0x20000800)  returns 0x00 (0000ms, 2797ms total)
T6114 003:405 JLINK_WriteReg(PSP, 0x20000800)  returns 0x00 (0000ms, 2797ms total)
T6114 003:405 JLINK_WriteReg(CFBP, 0x00000000)  returns 0x00 (0000ms, 2797ms total)
T6114 003:405 JLINK_SetBPEx(Addr = 0x20000000, Type = 0xFFFFFFF2)  returns 0x00000009 (0000ms, 2797ms total)
T6114 003:406 JLINK_Go() -- CPU_ReadMem(4 bytes @ 0xE0001000) (0004ms, 2802ms total)
T6114 003:410 JLINK_IsHalted()  returns FALSE (0001ms, 2803ms total)
T6114 003:419 JLINK_IsHalted()  returns FALSE (0000ms, 2802ms total)
T6114 003:421 JLINK_IsHalted()  returns FALSE (0000ms, 2802ms total)
T6114 003:424 JLINK_IsHalted()  returns FALSE (0000ms, 2802ms total)
T6114 003:426 JLINK_IsHalted()  returns FALSE (0000ms, 2802ms total)
T6114 003:433 JLINK_IsHalted()  returns FALSE (0001ms, 2803ms total)
T6114 003:436 JLINK_IsHalted()  returns FALSE (0001ms, 2803ms total)
T6114 003:439 JLINK_IsHalted()  returns FALSE (0000ms, 2802ms total)
T6114 003:445 JLINK_IsHalted() -- CPU_ReadMem(2 bytes @ 0x20000000)  returns TRUE (0004ms, 2806ms total)
T6114 003:449 JLINK_ReadReg(R15 (PC))  returns 0x20000000 (0000ms, 2802ms total)
T6114 003:449 JLINK_ClrBPEx(BPHandle = 0x00000009)  returns 0x00 (0000ms, 2802ms total)
T6114 003:449 JLINK_ReadReg(R0)  returns 0x00000000 (0000ms, 2802ms total)
T6114 003:450 JLINK_WriteMem(0x20000164, 0x0400 Bytes, ...) - Data: 2A 49 08 60 00 23 2A 4A 23 49 89 1C 29 48 DF F8 ... -- CPU_WriteMem(1024 bytes @ 0x20000164)  returns 0x400 (0006ms, 2808ms total)
T6114 003:456 JLINK_WriteReg(R0, 0x08001400)  returns 0x00 (0001ms, 2809ms total)
T6114 003:457 JLINK_WriteReg(R1, 0x00000400)  returns 0x00 (0000ms, 2809ms total)
T6114 003:457 JLINK_WriteReg(R2, 0x20000164)  returns 0x00 (0000ms, 2809ms total)
T6114 003:457 JLINK_WriteReg(R3, 0x00000000)  returns 0x00 (0000ms, 2809ms total)
T6114 003:457 JLINK_WriteReg(R4, 0x00000000)  returns 0x00 (0000ms, 2809ms total)
T6114 003:457 JLINK_WriteReg(R5, 0x00000000)  returns 0x00 (0000ms, 2809ms total)
T6114 003:457 JLINK_WriteReg(R6, 0x00000000)  returns 0x00 (0000ms, 2809ms total)
T6114 003:457 JLINK_WriteReg(R7, 0x00000000)  returns 0x00 (0000ms, 2809ms total)
T6114 003:457 JLINK_WriteReg(R8, 0x00000000)  returns 0x00 (0000ms, 2809ms total)
T6114 003:457 JLINK_WriteReg(R9, 0x20000160)  returns 0x00 (0000ms, 2809ms total)
T6114 003:457 JLINK_WriteReg(R10, 0x00000000)  returns 0x00 (0000ms, 2809ms total)
T6114 003:457 JLINK_WriteReg(R11, 0x00000000)  returns 0x00 (0000ms, 2809ms total)
T6114 003:457 JLINK_WriteReg(R12, 0x00000000)  returns 0x00 (0000ms, 2809ms total)
T6114 003:457 JLINK_WriteReg(R13 (SP), 0x20000800)  returns 0x00 (0000ms, 2809ms total)
T6114 003:457 JLINK_WriteReg(R14, 0x20000001)  returns 0x00 (0000ms, 2809ms total)
T6114 003:457 JLINK_WriteReg(R15 (PC), 0x200000F4)  returns 0x00 (0000ms, 2809ms total)
T6114 003:457 JLINK_WriteReg(XPSR, 0x01000000)  returns 0x00 (0000ms, 2809ms total)
T6114 003:457 JLINK_WriteReg(MSP, 0x20000800)  returns 0x00 (0000ms, 2809ms total)
T6114 003:457 JLINK_WriteReg(PSP, 0x20000800)  returns 0x00 (0000ms, 2809ms total)
T6114 003:457 JLINK_WriteReg(CFBP, 0x00000000)  returns 0x00 (0000ms, 2809ms total)
T6114 003:457 JLINK_SetBPEx(Addr = 0x20000000, Type = 0xFFFFFFF2)  returns 0x0000000A (0000ms, 2809ms total)
T6114 003:457 JLINK_Go() -- CPU_ReadMem(4 bytes @ 0xE0001000) (0005ms, 2814ms total)
T6114 003:462 JLINK_IsHalted()  returns FALSE (0001ms, 2815ms total)
T6114 003:468 JLINK_IsHalted()  returns FALSE (0001ms, 2815ms total)
T6114 003:471 JLINK_IsHalted()  returns FALSE (0000ms, 2814ms total)
T6114 003:480 JLINK_IsHalted()  returns FALSE (0001ms, 2815ms total)
T6114 003:483 JLINK_IsHalted()  returns FALSE (0000ms, 2814ms total)
T6114 003:485 JLINK_IsHalted()  returns FALSE (0000ms, 2814ms total)
T6114 003:491 JLINK_IsHalted()  returns FALSE (0000ms, 2814ms total)
T6114 003:493 JLINK_IsHalted() -- CPU_ReadMem(2 bytes @ 0x20000000)  returns TRUE (0005ms, 2819ms total)
T6114 003:498 JLINK_ReadReg(R15 (PC))  returns 0x20000000 (0000ms, 2814ms total)
T6114 003:498 JLINK_ClrBPEx(BPHandle = 0x0000000A)  returns 0x00 (0000ms, 2814ms total)
T6114 003:498 JLINK_ReadReg(R0)  returns 0x00000000 (0000ms, 2814ms total)
T6114 003:498 JLINK_WriteMem(0x20000164, 0x0400 Bytes, ...) - Data: 01 F0 A8 FB 00 20 01 F0 A5 FB 10 BD 08 B5 01 46 ... -- CPU_WriteMem(1024 bytes @ 0x20000164)  returns 0x400 (0007ms, 2821ms total)
T6114 003:505 JLINK_WriteReg(R0, 0x08001800)  returns 0x00 (0000ms, 2821ms total)
T6114 003:505 JLINK_WriteReg(R1, 0x00000400)  returns 0x00 (0000ms, 2821ms total)
T6114 003:505 JLINK_WriteReg(R2, 0x20000164)  returns 0x00 (0000ms, 2821ms total)
T6114 003:505 JLINK_WriteReg(R3, 0x00000000)  returns 0x00 (0000ms, 2821ms total)
T6114 003:505 JLINK_WriteReg(R4, 0x00000000)  returns 0x00 (0000ms, 2821ms total)
T6114 003:505 JLINK_WriteReg(R5, 0x00000000)  returns 0x00 (0001ms, 2822ms total)
T6114 003:506 JLINK_WriteReg(R6, 0x00000000)  returns 0x00 (0000ms, 2822ms total)
T6114 003:506 JLINK_WriteReg(R7, 0x00000000)  returns 0x00 (0000ms, 2822ms total)
T6114 003:506 JLINK_WriteReg(R8, 0x00000000)  returns 0x00 (0000ms, 2822ms total)
T6114 003:506 JLINK_WriteReg(R9, 0x20000160)  returns 0x00 (0000ms, 2822ms total)
T6114 003:506 JLINK_WriteReg(R10, 0x00000000)  returns 0x00 (0000ms, 2822ms total)
T6114 003:506 JLINK_WriteReg(R11, 0x00000000)  returns 0x00 (0000ms, 2822ms total)
T6114 003:506 JLINK_WriteReg(R12, 0x00000000)  returns 0x00 (0000ms, 2822ms total)
T6114 003:506 JLINK_WriteReg(R13 (SP), 0x20000800)  returns 0x00 (0000ms, 2822ms total)
T6114 003:506 JLINK_WriteReg(R14, 0x20000001)  returns 0x00 (0000ms, 2822ms total)
T6114 003:506 JLINK_WriteReg(R15 (PC), 0x200000F4)  returns 0x00 (0000ms, 2822ms total)
T6114 003:506 JLINK_WriteReg(XPSR, 0x01000000)  returns 0x00 (0000ms, 2822ms total)
T6114 003:506 JLINK_WriteReg(MSP, 0x20000800)  returns 0x00 (0000ms, 2822ms total)
T6114 003:506 JLINK_WriteReg(PSP, 0x20000800)  returns 0x00 (0000ms, 2822ms total)
T6114 003:506 JLINK_WriteReg(CFBP, 0x00000000)  returns 0x00 (0000ms, 2822ms total)
T6114 003:506 JLINK_SetBPEx(Addr = 0x20000000, Type = 0xFFFFFFF2)  returns 0x0000000B (0000ms, 2822ms total)
T6114 003:506 JLINK_Go() -- CPU_ReadMem(4 bytes @ 0xE0001000) (0005ms, 2827ms total)
T6114 003:511 JLINK_IsHalted()  returns FALSE (0000ms, 2827ms total)
T6114 003:515 JLINK_IsHalted()  returns FALSE (0000ms, 2827ms total)
T6114 003:517 JLINK_IsHalted()  returns FALSE (0001ms, 2828ms total)
T6114 003:529 JLINK_IsHalted()  returns FALSE (0000ms, 2827ms total)
T6114 003:531 JLINK_IsHalted()  returns FALSE (0001ms, 2828ms total)
T6114 003:534 JLINK_IsHalted()  returns FALSE (0000ms, 2827ms total)
T6114 003:541 JLINK_IsHalted() -- CPU_ReadMem(2 bytes @ 0x20000000)  returns TRUE (0005ms, 2832ms total)
T6114 003:546 JLINK_ReadReg(R15 (PC))  returns 0x20000000 (0000ms, 2827ms total)
T6114 003:546 JLINK_ClrBPEx(BPHandle = 0x0000000B)  returns 0x00 (0000ms, 2827ms total)
T6114 003:546 JLINK_ReadReg(R0)  returns 0x00000000 (0000ms, 2827ms total)
T6114 003:546 JLINK_WriteMem(0x20000164, 0x0400 Bytes, ...) - Data: 70 47 00 00 00 30 00 40 00 B5 85 B0 01 21 05 20 ... -- CPU_WriteMem(1024 bytes @ 0x20000164)  returns 0x400 (0007ms, 2834ms total)
T6114 003:553 JLINK_WriteReg(R0, 0x08001C00)  returns 0x00 (0000ms, 2834ms total)
T6114 003:553 JLINK_WriteReg(R1, 0x00000400)  returns 0x00 (0000ms, 2834ms total)
T6114 003:553 JLINK_WriteReg(R2, 0x20000164)  returns 0x00 (0000ms, 2834ms total)
T6114 003:553 JLINK_WriteReg(R3, 0x00000000)  returns 0x00 (0000ms, 2834ms total)
T6114 003:553 JLINK_WriteReg(R4, 0x00000000)  returns 0x00 (0000ms, 2834ms total)
T6114 003:553 JLINK_WriteReg(R5, 0x00000000)  returns 0x00 (0000ms, 2834ms total)
T6114 003:553 JLINK_WriteReg(R6, 0x00000000)  returns 0x00 (0000ms, 2834ms total)
T6114 003:553 JLINK_WriteReg(R7, 0x00000000)  returns 0x00 (0000ms, 2834ms total)
T6114 003:553 JLINK_WriteReg(R8, 0x00000000)  returns 0x00 (0000ms, 2834ms total)
T6114 003:553 JLINK_WriteReg(R9, 0x20000160)  returns 0x00 (0000ms, 2834ms total)
T6114 003:553 JLINK_WriteReg(R10, 0x00000000)  returns 0x00 (0001ms, 2835ms total)
T6114 003:554 JLINK_WriteReg(R11, 0x00000000)  returns 0x00 (0000ms, 2835ms total)
T6114 003:554 JLINK_WriteReg(R12, 0x00000000)  returns 0x00 (0000ms, 2835ms total)
T6114 003:554 JLINK_WriteReg(R13 (SP), 0x20000800)  returns 0x00 (0000ms, 2835ms total)
T6114 003:554 JLINK_WriteReg(R14, 0x20000001)  returns 0x00 (0000ms, 2835ms total)
T6114 003:554 JLINK_WriteReg(R15 (PC), 0x200000F4)  returns 0x00 (0000ms, 2835ms total)
T6114 003:554 JLINK_WriteReg(XPSR, 0x01000000)  returns 0x00 (0000ms, 2835ms total)
T6114 003:554 JLINK_WriteReg(MSP, 0x20000800)  returns 0x00 (0000ms, 2835ms total)
T6114 003:554 JLINK_WriteReg(PSP, 0x20000800)  returns 0x00 (0000ms, 2835ms total)
T6114 003:554 JLINK_WriteReg(CFBP, 0x00000000)  returns 0x00 (0000ms, 2835ms total)
T6114 003:554 JLINK_SetBPEx(Addr = 0x20000000, Type = 0xFFFFFFF2)  returns 0x0000000C (0000ms, 2835ms total)
T6114 003:554 JLINK_Go() -- CPU_ReadMem(4 bytes @ 0xE0001000) (0004ms, 2839ms total)
T6114 003:558 JLINK_IsHalted()  returns FALSE (0001ms, 2840ms total)
T6114 003:563 JLINK_IsHalted()  returns FALSE (0000ms, 2839ms total)
T6114 003:565 JLINK_IsHalted()  returns FALSE (0000ms, 2839ms total)
T6114 003:570 JLINK_IsHalted()  returns FALSE (0001ms, 2840ms total)
T6114 003:573 JLINK_IsHalted()  returns FALSE (0001ms, 2840ms total)
T6114 003:576 JLINK_IsHalted()  returns FALSE (0000ms, 2839ms total)
T6114 003:578 JLINK_IsHalted()  returns FALSE (0001ms, 2840ms total)
T6114 003:581 JLINK_IsHalted()  returns FALSE (0000ms, 2839ms total)
T6114 003:583 JLINK_IsHalted()  returns FALSE (0001ms, 2840ms total)
T6114 003:591 JLINK_IsHalted() -- CPU_ReadMem(2 bytes @ 0x20000000)  returns TRUE (0004ms, 2843ms total)
T6114 003:595 JLINK_ReadReg(R15 (PC))  returns 0x20000000 (0000ms, 2839ms total)
T6114 003:595 JLINK_ClrBPEx(BPHandle = 0x0000000C)  returns 0x00 (0000ms, 2839ms total)
T6114 003:595 JLINK_ReadReg(R0)  returns 0x00000000 (0000ms, 2839ms total)
T6114 003:596 JLINK_WriteMem(0x20000164, 0x0400 Bytes, ...) - Data: 34 33 2E 32 33 2E 30 39 00 00 00 00 31 31 32 2E ... -- CPU_WriteMem(1024 bytes @ 0x20000164)  returns 0x400 (0007ms, 2846ms total)
T6114 003:603 JLINK_WriteReg(R0, 0x08002000)  returns 0x00 (0000ms, 2846ms total)
T6114 003:603 JLINK_WriteReg(R1, 0x00000400)  returns 0x00 (0000ms, 2846ms total)
T6114 003:603 JLINK_WriteReg(R2, 0x20000164)  returns 0x00 (0000ms, 2846ms total)
T6114 003:603 JLINK_WriteReg(R3, 0x00000000)  returns 0x00 (0000ms, 2846ms total)
T6114 003:603 JLINK_WriteReg(R4, 0x00000000)  returns 0x00 (0000ms, 2846ms total)
T6114 003:603 JLINK_WriteReg(R5, 0x00000000)  returns 0x00 (0000ms, 2846ms total)
T6114 003:603 JLINK_WriteReg(R6, 0x00000000)  returns 0x00 (0000ms, 2846ms total)
T6114 003:603 JLINK_WriteReg(R7, 0x00000000)  returns 0x00 (0001ms, 2847ms total)
T6114 003:604 JLINK_WriteReg(R8, 0x00000000)  returns 0x00 (0000ms, 2847ms total)
T6114 003:604 JLINK_WriteReg(R9, 0x20000160)  returns 0x00 (0000ms, 2847ms total)
T6114 003:604 JLINK_WriteReg(R10, 0x00000000)  returns 0x00 (0000ms, 2847ms total)
T6114 003:604 JLINK_WriteReg(R11, 0x00000000)  returns 0x00 (0000ms, 2847ms total)
T6114 003:604 JLINK_WriteReg(R12, 0x00000000)  returns 0x00 (0000ms, 2847ms total)
T6114 003:604 JLINK_WriteReg(R13 (SP), 0x20000800)  returns 0x00 (0000ms, 2847ms total)
T6114 003:604 JLINK_WriteReg(R14, 0x20000001)  returns 0x00 (0000ms, 2847ms total)
T6114 003:604 JLINK_WriteReg(R15 (PC), 0x200000F4)  returns 0x00 (0000ms, 2847ms total)
T6114 003:604 JLINK_WriteReg(XPSR, 0x01000000)  returns 0x00 (0000ms, 2847ms total)
T6114 003:604 JLINK_WriteReg(MSP, 0x20000800)  returns 0x00 (0000ms, 2847ms total)
T6114 003:604 JLINK_WriteReg(PSP, 0x20000800)  returns 0x00 (0000ms, 2847ms total)
T6114 003:604 JLINK_WriteReg(CFBP, 0x00000000)  returns 0x00 (0000ms, 2847ms total)
T6114 003:604 JLINK_SetBPEx(Addr = 0x20000000, Type = 0xFFFFFFF2)  returns 0x0000000D (0000ms, 2847ms total)
T6114 003:604 JLINK_Go() -- CPU_ReadMem(4 bytes @ 0xE0001000) (0005ms, 2852ms total)
T6114 003:609 JLINK_IsHalted()  returns FALSE (0001ms, 2853ms total)
T6114 003:616 JLINK_IsHalted()  returns FALSE (0000ms, 2852ms total)
T6114 003:618 JLINK_IsHalted()  returns FALSE (0000ms, 2852ms total)
T6114 003:620 JLINK_IsHalted()  returns FALSE (0000ms, 2852ms total)
T6114 003:622 JLINK_IsHalted()  returns FALSE (0000ms, 2852ms total)
T6114 003:624 JLINK_IsHalted()  returns FALSE (0000ms, 2852ms total)
T6114 003:626 JLINK_IsHalted()  returns FALSE (0000ms, 2852ms total)
T6114 003:628 JLINK_IsHalted()  returns FALSE (0000ms, 2852ms total)
T6114 003:630 JLINK_IsHalted()  returns FALSE (0000ms, 2852ms total)
T6114 003:632 JLINK_IsHalted()  returns FALSE (0000ms, 2852ms total)
T6114 003:640 JLINK_IsHalted() -- CPU_ReadMem(2 bytes @ 0x20000000)  returns TRUE (0005ms, 2857ms total)
T6114 003:645 JLINK_ReadReg(R15 (PC))  returns 0x20000000 (0000ms, 2852ms total)
T6114 003:645 JLINK_ClrBPEx(BPHandle = 0x0000000D)  returns 0x00 (0000ms, 2852ms total)
T6114 003:645 JLINK_ReadReg(R0)  returns 0x00000000 (0000ms, 2852ms total)
T6114 003:645 JLINK_WriteMem(0x20000164, 0x0400 Bytes, ...) - Data: 34 8E 00 20 0C 8E 00 20 E4 01 00 20 80 01 00 20 ... -- CPU_WriteMem(1024 bytes @ 0x20000164)  returns 0x400 (0007ms, 2859ms total)
T6114 003:652 JLINK_WriteReg(R0, 0x08002400)  returns 0x00 (0000ms, 2859ms total)
T6114 003:652 JLINK_WriteReg(R1, 0x00000400)  returns 0x00 (0000ms, 2859ms total)
T6114 003:652 JLINK_WriteReg(R2, 0x20000164)  returns 0x00 (0001ms, 2860ms total)
T6114 003:653 JLINK_WriteReg(R3, 0x00000000)  returns 0x00 (0000ms, 2860ms total)
T6114 003:653 JLINK_WriteReg(R4, 0x00000000)  returns 0x00 (0000ms, 2860ms total)
T6114 003:653 JLINK_WriteReg(R5, 0x00000000)  returns 0x00 (0000ms, 2860ms total)
T6114 003:653 JLINK_WriteReg(R6, 0x00000000)  returns 0x00 (0000ms, 2860ms total)
T6114 003:653 JLINK_WriteReg(R7, 0x00000000)  returns 0x00 (0000ms, 2860ms total)
T6114 003:653 JLINK_WriteReg(R8, 0x00000000)  returns 0x00 (0000ms, 2860ms total)
T6114 003:653 JLINK_WriteReg(R9, 0x20000160)  returns 0x00 (0000ms, 2860ms total)
T6114 003:653 JLINK_WriteReg(R10, 0x00000000)  returns 0x00 (0000ms, 2860ms total)
T6114 003:653 JLINK_WriteReg(R11, 0x00000000)  returns 0x00 (0000ms, 2860ms total)
T6114 003:653 JLINK_WriteReg(R12, 0x00000000)  returns 0x00 (0000ms, 2860ms total)
T6114 003:653 JLINK_WriteReg(R13 (SP), 0x20000800)  returns 0x00 (0000ms, 2860ms total)
T6114 003:653 JLINK_WriteReg(R14, 0x20000001)  returns 0x00 (0000ms, 2860ms total)
T6114 003:653 JLINK_WriteReg(R15 (PC), 0x200000F4)  returns 0x00 (0000ms, 2860ms total)
T6114 003:653 JLINK_WriteReg(XPSR, 0x01000000)  returns 0x00 (0000ms, 2860ms total)
T6114 003:653 JLINK_WriteReg(MSP, 0x20000800)  returns 0x00 (0000ms, 2860ms total)
T6114 003:653 JLINK_WriteReg(PSP, 0x20000800)  returns 0x00 (0000ms, 2860ms total)
T6114 003:653 JLINK_WriteReg(CFBP, 0x00000000)  returns 0x00 (0000ms, 2860ms total)
T6114 003:653 JLINK_SetBPEx(Addr = 0x20000000, Type = 0xFFFFFFF2)  returns 0x0000000E (0000ms, 2860ms total)
T6114 003:653 JLINK_Go() -- CPU_ReadMem(4 bytes @ 0xE0001000) (0005ms, 2865ms total)
T6114 003:658 JLINK_IsHalted()  returns FALSE (0001ms, 2866ms total)
T6114 003:667 JLINK_IsHalted()  returns FALSE (0000ms, 2865ms total)
T6114 003:669 JLINK_IsHalted()  returns FALSE (0001ms, 2866ms total)
T6114 003:672 JLINK_IsHalted()  returns FALSE (0001ms, 2866ms total)
T6114 003:675 JLINK_IsHalted()  returns FALSE (0000ms, 2865ms total)
T6114 003:677 JLINK_IsHalted()  returns FALSE (0000ms, 2865ms total)
T6114 003:683 JLINK_IsHalted()  returns FALSE (0000ms, 2865ms total)
T6114 003:685 JLINK_IsHalted()  returns FALSE (0001ms, 2866ms total)
T6114 003:688 JLINK_IsHalted()  returns FALSE (0001ms, 2866ms total)
T6114 003:691 JLINK_IsHalted() -- CPU_ReadMem(2 bytes @ 0x20000000)  returns TRUE (0004ms, 2869ms total)
T6114 003:695 JLINK_ReadReg(R15 (PC))  returns 0x20000000 (0000ms, 2865ms total)
T6114 003:695 JLINK_ClrBPEx(BPHandle = 0x0000000E)  returns 0x00 (0000ms, 2865ms total)
T6114 003:695 JLINK_ReadReg(R0)  returns 0x00000000 (0000ms, 2865ms total)
T6114 003:696 JLINK_WriteMem(0x20000164, 0x0400 Bytes, ...) - Data: 27 FD 0C E0 04 22 4F A1 44 48 FD F7 9C FD 20 B9 ... -- CPU_WriteMem(1024 bytes @ 0x20000164)  returns 0x400 (0007ms, 2872ms total)
T6114 003:703 JLINK_WriteReg(R0, 0x08002800)  returns 0x00 (0000ms, 2872ms total)
T6114 003:703 JLINK_WriteReg(R1, 0x00000400)  returns 0x00 (0000ms, 2872ms total)
T6114 003:703 JLINK_WriteReg(R2, 0x20000164)  returns 0x00 (0000ms, 2872ms total)
T6114 003:703 JLINK_WriteReg(R3, 0x00000000)  returns 0x00 (0000ms, 2872ms total)
T6114 003:703 JLINK_WriteReg(R4, 0x00000000)  returns 0x00 (0000ms, 2872ms total)
T6114 003:703 JLINK_WriteReg(R5, 0x00000000)  returns 0x00 (0000ms, 2872ms total)
T6114 003:703 JLINK_WriteReg(R6, 0x00000000)  returns 0x00 (0000ms, 2872ms total)
T6114 003:703 JLINK_WriteReg(R7, 0x00000000)  returns 0x00 (0000ms, 2872ms total)
T6114 003:703 JLINK_WriteReg(R8, 0x00000000)  returns 0x00 (0000ms, 2872ms total)
T6114 003:703 JLINK_WriteReg(R9, 0x20000160)  returns 0x00 (0000ms, 2872ms total)
T6114 003:703 JLINK_WriteReg(R10, 0x00000000)  returns 0x00 (0000ms, 2872ms total)
T6114 003:703 JLINK_WriteReg(R11, 0x00000000)  returns 0x00 (0000ms, 2872ms total)
T6114 003:703 JLINK_WriteReg(R12, 0x00000000)  returns 0x00 (0000ms, 2872ms total)
T6114 003:703 JLINK_WriteReg(R13 (SP), 0x20000800)  returns 0x00 (0000ms, 2872ms total)
T6114 003:703 JLINK_WriteReg(R14, 0x20000001)  returns 0x00 (0000ms, 2872ms total)
T6114 003:703 JLINK_WriteReg(R15 (PC), 0x200000F4)  returns 0x00 (0000ms, 2872ms total)
T6114 003:703 JLINK_WriteReg(XPSR, 0x01000000)  returns 0x00 (0000ms, 2872ms total)
T6114 003:703 JLINK_WriteReg(MSP, 0x20000800)  returns 0x00 (0000ms, 2872ms total)
T6114 003:703 JLINK_WriteReg(PSP, 0x20000800)  returns 0x00 (0000ms, 2872ms total)
T6114 003:703 JLINK_WriteReg(CFBP, 0x00000000)  returns 0x00 (0000ms, 2872ms total)
T6114 003:703 JLINK_SetBPEx(Addr = 0x20000000, Type = 0xFFFFFFF2)  returns 0x0000000F (0001ms, 2873ms total)
